Sample in Buffer,Sample in Window,TRIGGER,u_ram_rw/rst_n,u_ram_rw/ram_wea,u_ram_rw/ram_addr[4:0],u_ram_rw/ram_wr_data[7:0],u_ram_rw/ram_rd_data[7:0]
Radix - UNSIGNED,UNSIGNED,UNSIGNED,HEX,HEX,UNSIGNED,UNSIGNED,UNSIGNED
0,0,0,1,0,7,0,6
1,1,0,1,0,8,0,7
2,2,0,1,0,9,0,8
3,3,0,1,0,10,0,9
4,4,0,1,0,11,0,10
5,5,0,1,0,12,0,11
6,6,0,1,0,13,0,12
7,7,0,1,0,14,0,13
8,8,0,1,0,15,0,14
9,9,0,1,0,16,0,15
10,10,0,1,0,17,0,16
11,11,0,1,0,18,0,17
12,12,0,1,0,19,0,18
13,13,0,1,0,20,0,19
14,14,0,1,0,21,0,20
15,15,0,1,0,22,0,21
16,16,0,1,0,23,0,22
17,17,0,1,0,24,0,23
18,18,0,1,0,25,0,24
19,19,0,1,0,26,0,25
20,20,0,1,0,27,0,26
21,21,0,1,0,28,0,27
22,22,0,1,0,29,0,28
23,23,0,1,0,30,0,29
24,24,0,1,0,31,0,30
25,25,0,1,1,0,0,31
26,26,0,1,1,1,1,31
27,27,0,1,1,2,2,31
28,28,0,1,1,3,3,31
29,29,0,1,1,4,4,31
30,30,0,1,1,5,5,31
31,31,0,1,1,6,6,31
32,32,0,1,1,7,7,31
33,33,0,1,1,8,8,31
34,34,0,1,1,9,9,31
35,35,0,1,1,10,10,31
36,36,0,1,1,11,11,31
37,37,0,1,1,12,12,31
38,38,0,1,1,13,13,31
39,39,0,1,1,14,14,31
40,40,0,1,1,15,15,31
41,41,0,1,1,16,16,31
42,42,0,1,1,17,17,31
43,43,0,1,1,18,18,31
44,44,0,1,1,19,19,31
45,45,0,1,1,20,20,31
46,46,0,1,1,21,21,31
47,47,0,1,1,22,22,31
48,48,0,1,1,23,23,31
49,49,0,1,1,24,24,31
50,50,0,1,1,25,25,31
51,51,0,1,1,26,26,31
52,52,0,1,1,27,27,31
53,53,0,1,1,28,28,31
54,54,0,1,1,29,29,31
55,55,0,1,1,30,30,31
56,56,0,1,1,31,31,31
57,57,0,1,0,0,32,31
58,58,0,1,0,1,0,0
59,59,0,1,0,2,0,1
60,60,0,1,0,3,0,2
61,61,0,1,0,4,0,3
62,62,0,1,0,5,0,4
63,63,0,1,0,6,0,5
64,64,0,1,0,7,0,6
65,65,0,1,0,8,0,7
66,66,0,1,0,9,0,8
67,67,0,1,0,10,0,9
68,68,0,1,0,11,0,10
69,69,0,1,0,12,0,11
70,70,0,1,0,13,0,12
71,71,0,1,0,14,0,13
72,72,0,1,0,15,0,14
73,73,0,1,0,16,0,15
74,74,0,1,0,17,0,16
75,75,0,1,0,18,0,17
76,76,0,1,0,19,0,18
77,77,0,1,0,20,0,19
78,78,0,1,0,21,0,20
79,79,0,1,0,22,0,21
80,80,0,1,0,23,0,22
81,81,0,1,0,24,0,23
82,82,0,1,0,25,0,24
83,83,0,1,0,26,0,25
84,84,0,1,0,27,0,26
85,85,0,1,0,28,0,27
86,86,0,1,0,29,0,28
87,87,0,1,0,30,0,29
88,88,0,1,0,31,0,30
89,89,0,1,1,0,0,31
90,90,0,1,1,1,1,31
91,91,0,1,1,2,2,31
92,92,0,1,1,3,3,31
93,93,0,1,1,4,4,31
94,94,0,1,1,5,5,31
95,95,0,1,1,6,6,31
96,96,0,1,1,7,7,31
97,97,0,1,1,8,8,31
98,98,0,1,1,9,9,31
99,99,0,1,1,10,10,31
100,100,0,1,1,11,11,31
101,101,0,1,1,12,12,31
102,102,0,1,1,13,13,31
103,103,0,1,1,14,14,31
104,104,0,1,1,15,15,31
105,105,0,1,1,16,16,31
106,106,0,1,1,17,17,31
107,107,0,1,1,18,18,31
108,108,0,1,1,19,19,31
109,109,0,1,1,20,20,31
110,110,0,1,1,21,21,31
111,111,0,1,1,22,22,31
112,112,0,1,1,23,23,31
113,113,0,1,1,24,24,31
114,114,0,1,1,25,25,31
115,115,0,1,1,26,26,31
116,116,0,1,1,27,27,31
117,117,0,1,1,28,28,31
118,118,0,1,1,29,29,31
119,119,0,1,1,30,30,31
120,120,0,1,1,31,31,31
121,121,0,1,0,0,32,31
122,122,0,1,0,1,0,0
123,123,0,1,0,2,0,1
124,124,0,1,0,3,0,2
125,125,0,1,0,4,0,3
126,126,0,1,0,5,0,4
127,127,0,1,0,6,0,5
128,128,0,1,0,7,0,6
129,129,0,1,0,8,0,7
130,130,0,1,0,9,0,8
131,131,0,1,0,10,0,9
132,132,0,1,0,11,0,10
133,133,0,1,0,12,0,11
134,134,0,1,0,13,0,12
135,135,0,1,0,14,0,13
136,136,0,1,0,15,0,14
137,137,0,1,0,16,0,15
138,138,0,1,0,17,0,16
139,139,0,1,0,18,0,17
140,140,0,1,0,19,0,18
141,141,0,1,0,20,0,19
142,142,0,1,0,21,0,20
143,143,0,1,0,22,0,21
144,144,0,1,0,23,0,22
145,145,0,1,0,24,0,23
146,146,0,1,0,25,0,24
147,147,0,1,0,26,0,25
148,148,0,1,0,27,0,26
149,149,0,1,0,28,0,27
150,150,0,1,0,29,0,28
151,151,0,1,0,30,0,29
152,152,0,1,0,31,0,30
153,153,0,1,1,0,0,31
154,154,0,1,1,1,1,31
155,155,0,1,1,2,2,31
156,156,0,1,1,3,3,31
157,157,0,1,1,4,4,31
158,158,0,1,1,5,5,31
159,159,0,1,1,6,6,31
160,160,0,1,1,7,7,31
161,161,0,1,1,8,8,31
162,162,0,1,1,9,9,31
163,163,0,1,1,10,10,31
164,164,0,1,1,11,11,31
165,165,0,1,1,12,12,31
166,166,0,1,1,13,13,31
167,167,0,1,1,14,14,31
168,168,0,1,1,15,15,31
169,169,0,1,1,16,16,31
170,170,0,1,1,17,17,31
171,171,0,1,1,18,18,31
172,172,0,1,1,19,19,31
173,173,0,1,1,20,20,31
174,174,0,1,1,21,21,31
175,175,0,1,1,22,22,31
176,176,0,1,1,23,23,31
177,177,0,1,1,24,24,31
178,178,0,1,1,25,25,31
179,179,0,1,1,26,26,31
180,180,0,1,1,27,27,31
181,181,0,1,1,28,28,31
182,182,0,1,1,29,29,31
183,183,0,1,1,30,30,31
184,184,0,1,1,31,31,31
185,185,0,1,0,0,32,31
186,186,0,1,0,1,0,0
187,187,0,1,0,2,0,1
188,188,0,1,0,3,0,2
189,189,0,1,0,4,0,3
190,190,0,1,0,5,0,4
191,191,0,1,0,6,0,5
192,192,0,1,0,7,0,6
193,193,0,1,0,8,0,7
194,194,0,1,0,9,0,8
195,195,0,1,0,10,0,9
196,196,0,1,0,11,0,10
197,197,0,1,0,12,0,11
198,198,0,1,0,13,0,12
199,199,0,1,0,14,0,13
200,200,0,1,0,15,0,14
201,201,0,1,0,16,0,15
202,202,0,1,0,17,0,16
203,203,0,1,0,18,0,17
204,204,0,1,0,19,0,18
205,205,0,1,0,20,0,19
206,206,0,1,0,21,0,20
207,207,0,1,0,22,0,21
208,208,0,1,0,23,0,22
209,209,0,1,0,24,0,23
210,210,0,1,0,25,0,24
211,211,0,1,0,26,0,25
212,212,0,1,0,27,0,26
213,213,0,1,0,28,0,27
214,214,0,1,0,29,0,28
215,215,0,1,0,30,0,29
216,216,0,1,0,31,0,30
217,217,0,1,1,0,0,31
218,218,0,1,1,1,1,31
219,219,0,1,1,2,2,31
220,220,0,1,1,3,3,31
221,221,0,1,1,4,4,31
222,222,0,1,1,5,5,31
223,223,0,1,1,6,6,31
224,224,0,1,1,7,7,31
225,225,0,1,1,8,8,31
226,226,0,1,1,9,9,31
227,227,0,1,1,10,10,31
228,228,0,1,1,11,11,31
229,229,0,1,1,12,12,31
230,230,0,1,1,13,13,31
231,231,0,1,1,14,14,31
232,232,0,1,1,15,15,31
233,233,0,1,1,16,16,31
234,234,0,1,1,17,17,31
235,235,0,1,1,18,18,31
236,236,0,1,1,19,19,31
237,237,0,1,1,20,20,31
238,238,0,1,1,21,21,31
239,239,0,1,1,22,22,31
240,240,0,1,1,23,23,31
241,241,0,1,1,24,24,31
242,242,0,1,1,25,25,31
243,243,0,1,1,26,26,31
244,244,0,1,1,27,27,31
245,245,0,1,1,28,28,31
246,246,0,1,1,29,29,31
247,247,0,1,1,30,30,31
248,248,0,1,1,31,31,31
249,249,0,1,0,0,32,31
250,250,0,1,0,1,0,0
251,251,0,1,0,2,0,1
252,252,0,1,0,3,0,2
253,253,0,1,0,4,0,3
254,254,0,1,0,5,0,4
255,255,0,1,0,6,0,5
256,256,0,1,0,7,0,6
257,257,0,1,0,8,0,7
258,258,0,1,0,9,0,8
259,259,0,1,0,10,0,9
260,260,0,1,0,11,0,10
261,261,0,1,0,12,0,11
262,262,0,1,0,13,0,12
263,263,0,1,0,14,0,13
264,264,0,1,0,15,0,14
265,265,0,1,0,16,0,15
266,266,0,1,0,17,0,16
267,267,0,1,0,18,0,17
268,268,0,1,0,19,0,18
269,269,0,1,0,20,0,19
270,270,0,1,0,21,0,20
271,271,0,1,0,22,0,21
272,272,0,1,0,23,0,22
273,273,0,1,0,24,0,23
274,274,0,1,0,25,0,24
275,275,0,1,0,26,0,25
276,276,0,1,0,27,0,26
277,277,0,1,0,28,0,27
278,278,0,1,0,29,0,28
279,279,0,1,0,30,0,29
280,280,0,1,0,31,0,30
281,281,0,1,1,0,0,31
282,282,0,1,1,1,1,31
283,283,0,1,1,2,2,31
284,284,0,1,1,3,3,31
285,285,0,1,1,4,4,31
286,286,0,1,1,5,5,31
287,287,0,1,1,6,6,31
288,288,0,1,1,7,7,31
289,289,0,1,1,8,8,31
290,290,0,1,1,9,9,31
291,291,0,1,1,10,10,31
292,292,0,1,1,11,11,31
293,293,0,1,1,12,12,31
294,294,0,1,1,13,13,31
295,295,0,1,1,14,14,31
296,296,0,1,1,15,15,31
297,297,0,1,1,16,16,31
298,298,0,1,1,17,17,31
299,299,0,1,1,18,18,31
300,300,0,1,1,19,19,31
301,301,0,1,1,20,20,31
302,302,0,1,1,21,21,31
303,303,0,1,1,22,22,31
304,304,0,1,1,23,23,31
305,305,0,1,1,24,24,31
306,306,0,1,1,25,25,31
307,307,0,1,1,26,26,31
308,308,0,1,1,27,27,31
309,309,0,1,1,28,28,31
310,310,0,1,1,29,29,31
311,311,0,1,1,30,30,31
312,312,0,1,1,31,31,31
313,313,0,1,0,0,32,31
314,314,0,1,0,1,0,0
315,315,0,1,0,2,0,1
316,316,0,1,0,3,0,2
317,317,0,1,0,4,0,3
318,318,0,1,0,5,0,4
319,319,0,1,0,6,0,5
320,320,0,1,0,7,0,6
321,321,0,1,0,8,0,7
322,322,0,1,0,9,0,8
323,323,0,1,0,10,0,9
324,324,0,1,0,11,0,10
325,325,0,1,0,12,0,11
326,326,0,1,0,13,0,12
327,327,0,1,0,14,0,13
328,328,0,1,0,15,0,14
329,329,0,1,0,16,0,15
330,330,0,1,0,17,0,16
331,331,0,1,0,18,0,17
332,332,0,1,0,19,0,18
333,333,0,1,0,20,0,19
334,334,0,1,0,21,0,20
335,335,0,1,0,22,0,21
336,336,0,1,0,23,0,22
337,337,0,1,0,24,0,23
338,338,0,1,0,25,0,24
339,339,0,1,0,26,0,25
340,340,0,1,0,27,0,26
341,341,0,1,0,28,0,27
342,342,0,1,0,29,0,28
343,343,0,1,0,30,0,29
344,344,0,1,0,31,0,30
345,345,0,1,1,0,0,31
346,346,0,1,1,1,1,31
347,347,0,1,1,2,2,31
348,348,0,1,1,3,3,31
349,349,0,1,1,4,4,31
350,350,0,1,1,5,5,31
351,351,0,1,1,6,6,31
352,352,0,1,1,7,7,31
353,353,0,1,1,8,8,31
354,354,0,1,1,9,9,31
355,355,0,1,1,10,10,31
356,356,0,1,1,11,11,31
357,357,0,1,1,12,12,31
358,358,0,1,1,13,13,31
359,359,0,1,1,14,14,31
360,360,0,1,1,15,15,31
361,361,0,1,1,16,16,31
362,362,0,1,1,17,17,31
363,363,0,1,1,18,18,31
364,364,0,1,1,19,19,31
365,365,0,1,1,20,20,31
366,366,0,1,1,21,21,31
367,367,0,1,1,22,22,31
368,368,0,1,1,23,23,31
369,369,0,1,1,24,24,31
370,370,0,1,1,25,25,31
371,371,0,1,1,26,26,31
372,372,0,1,1,27,27,31
373,373,0,1,1,28,28,31
374,374,0,1,1,29,29,31
375,375,0,1,1,30,30,31
376,376,0,1,1,31,31,31
377,377,0,1,0,0,32,31
378,378,0,1,0,1,0,0
379,379,0,1,0,2,0,1
380,380,0,1,0,3,0,2
381,381,0,1,0,4,0,3
382,382,0,1,0,5,0,4
383,383,0,1,0,6,0,5
384,384,0,1,0,7,0,6
385,385,0,1,0,8,0,7
386,386,0,1,0,9,0,8
387,387,0,1,0,10,0,9
388,388,0,1,0,11,0,10
389,389,0,1,0,12,0,11
390,390,0,1,0,13,0,12
391,391,0,1,0,14,0,13
392,392,0,1,0,15,0,14
393,393,0,1,0,16,0,15
394,394,0,1,0,17,0,16
395,395,0,1,0,18,0,17
396,396,0,1,0,19,0,18
397,397,0,1,0,20,0,19
398,398,0,1,0,21,0,20
399,399,0,1,0,22,0,21
400,400,0,1,0,23,0,22
401,401,0,1,0,24,0,23
402,402,0,1,0,25,0,24
403,403,0,1,0,26,0,25
404,404,0,1,0,27,0,26
405,405,0,1,0,28,0,27
406,406,0,1,0,29,0,28
407,407,0,1,0,30,0,29
408,408,0,1,0,31,0,30
409,409,0,1,1,0,0,31
410,410,0,1,1,1,1,31
411,411,0,1,1,2,2,31
412,412,0,1,1,3,3,31
413,413,0,1,1,4,4,31
414,414,0,1,1,5,5,31
415,415,0,1,1,6,6,31
416,416,0,1,1,7,7,31
417,417,0,1,1,8,8,31
418,418,0,1,1,9,9,31
419,419,0,1,1,10,10,31
420,420,0,1,1,11,11,31
421,421,0,1,1,12,12,31
422,422,0,1,1,13,13,31
423,423,0,1,1,14,14,31
424,424,0,1,1,15,15,31
425,425,0,1,1,16,16,31
426,426,0,1,1,17,17,31
427,427,0,1,1,18,18,31
428,428,0,1,1,19,19,31
429,429,0,1,1,20,20,31
430,430,0,1,1,21,21,31
431,431,0,1,1,22,22,31
432,432,0,1,1,23,23,31
433,433,0,1,1,24,24,31
434,434,0,1,1,25,25,31
435,435,0,1,1,26,26,31
436,436,0,1,1,27,27,31
437,437,0,1,1,28,28,31
438,438,0,1,1,29,29,31
439,439,0,1,1,30,30,31
440,440,0,1,1,31,31,31
441,441,0,1,0,0,32,31
442,442,0,1,0,1,0,0
443,443,0,1,0,2,0,1
444,444,0,1,0,3,0,2
445,445,0,1,0,4,0,3
446,446,0,1,0,5,0,4
447,447,0,1,0,6,0,5
448,448,0,1,0,7,0,6
449,449,0,1,0,8,0,7
450,450,0,1,0,9,0,8
451,451,0,1,0,10,0,9
452,452,0,1,0,11,0,10
453,453,0,1,0,12,0,11
454,454,0,1,0,13,0,12
455,455,0,1,0,14,0,13
456,456,0,1,0,15,0,14
457,457,0,1,0,16,0,15
458,458,0,1,0,17,0,16
459,459,0,1,0,18,0,17
460,460,0,1,0,19,0,18
461,461,0,1,0,20,0,19
462,462,0,1,0,21,0,20
463,463,0,1,0,22,0,21
464,464,0,1,0,23,0,22
465,465,0,1,0,24,0,23
466,466,0,1,0,25,0,24
467,467,0,1,0,26,0,25
468,468,0,1,0,27,0,26
469,469,0,1,0,28,0,27
470,470,0,1,0,29,0,28
471,471,0,1,0,30,0,29
472,472,0,1,0,31,0,30
473,473,0,1,1,0,0,31
474,474,0,1,1,1,1,31
475,475,0,1,1,2,2,31
476,476,0,1,1,3,3,31
477,477,0,1,1,4,4,31
478,478,0,1,1,5,5,31
479,479,0,1,1,6,6,31
480,480,0,1,1,7,7,31
481,481,0,1,1,8,8,31
482,482,0,1,1,9,9,31
483,483,0,1,1,10,10,31
484,484,0,1,1,11,11,31
485,485,0,1,1,12,12,31
486,486,0,1,1,13,13,31
487,487,0,1,1,14,14,31
488,488,0,1,1,15,15,31
489,489,0,1,1,16,16,31
490,490,0,1,1,17,17,31
491,491,0,1,1,18,18,31
492,492,0,1,1,19,19,31
493,493,0,1,1,20,20,31
494,494,0,1,1,21,21,31
495,495,0,1,1,22,22,31
496,496,0,1,1,23,23,31
497,497,0,1,1,24,24,31
498,498,0,1,1,25,25,31
499,499,0,1,1,26,26,31
500,500,0,1,1,27,27,31
501,501,0,1,1,28,28,31
502,502,0,1,1,29,29,31
503,503,0,1,1,30,30,31
504,504,0,1,1,31,31,31
505,505,0,1,0,0,32,31
506,506,0,1,0,1,0,0
507,507,0,1,0,2,0,1
508,508,0,1,0,3,0,2
509,509,0,1,0,4,0,3
510,510,0,1,0,5,0,4
511,511,0,1,0,6,0,5
512,512,1,1,0,7,0,6
513,513,0,1,0,8,0,7
514,514,0,1,0,9,0,8
515,515,0,1,0,10,0,9
516,516,0,1,0,11,0,10
517,517,0,1,0,12,0,11
518,518,0,1,0,13,0,12
519,519,0,1,0,14,0,13
520,520,0,1,0,15,0,14
521,521,0,1,0,16,0,15
522,522,0,1,0,17,0,16
523,523,0,1,0,18,0,17
524,524,0,1,0,19,0,18
525,525,0,1,0,20,0,19
526,526,0,1,0,21,0,20
527,527,0,1,0,22,0,21
528,528,0,1,0,23,0,22
529,529,0,1,0,24,0,23
530,530,0,1,0,25,0,24
531,531,0,1,0,26,0,25
532,532,0,1,0,27,0,26
533,533,0,1,0,28,0,27
534,534,0,1,0,29,0,28
535,535,0,1,0,30,0,29
536,536,0,1,0,31,0,30
537,537,0,1,1,0,0,31
538,538,0,1,1,1,1,31
539,539,0,1,1,2,2,31
540,540,0,1,1,3,3,31
541,541,0,1,1,4,4,31
542,542,0,1,1,5,5,31
543,543,0,1,1,6,6,31
544,544,0,1,1,7,7,31
545,545,0,1,1,8,8,31
546,546,0,1,1,9,9,31
547,547,0,1,1,10,10,31
548,548,0,1,1,11,11,31
549,549,0,1,1,12,12,31
550,550,0,1,1,13,13,31
551,551,0,1,1,14,14,31
552,552,0,1,1,15,15,31
553,553,0,1,1,16,16,31
554,554,0,1,1,17,17,31
555,555,0,1,1,18,18,31
556,556,0,1,1,19,19,31
557,557,0,1,1,20,20,31
558,558,0,1,1,21,21,31
559,559,0,1,1,22,22,31
560,560,0,1,1,23,23,31
561,561,0,1,1,24,24,31
562,562,0,1,1,25,25,31
563,563,0,1,1,26,26,31
564,564,0,1,1,27,27,31
565,565,0,1,1,28,28,31
566,566,0,1,1,29,29,31
567,567,0,1,1,30,30,31
568,568,0,1,1,31,31,31
569,569,0,1,0,0,32,31
570,570,0,1,0,1,0,0
571,571,0,1,0,2,0,1
572,572,0,1,0,3,0,2
573,573,0,1,0,4,0,3
574,574,0,1,0,5,0,4
575,575,0,1,0,6,0,5
576,576,0,1,0,7,0,6
577,577,0,1,0,8,0,7
578,578,0,1,0,9,0,8
579,579,0,1,0,10,0,9
580,580,0,1,0,11,0,10
581,581,0,1,0,12,0,11
582,582,0,1,0,13,0,12
583,583,0,1,0,14,0,13
584,584,0,1,0,15,0,14
585,585,0,1,0,16,0,15
586,586,0,1,0,17,0,16
587,587,0,1,0,18,0,17
588,588,0,1,0,19,0,18
589,589,0,1,0,20,0,19
590,590,0,1,0,21,0,20
591,591,0,1,0,22,0,21
592,592,0,1,0,23,0,22
593,593,0,1,0,24,0,23
594,594,0,1,0,25,0,24
595,595,0,1,0,26,0,25
596,596,0,1,0,27,0,26
597,597,0,1,0,28,0,27
598,598,0,1,0,29,0,28
599,599,0,1,0,30,0,29
600,600,0,1,0,31,0,30
601,601,0,1,1,0,0,31
602,602,0,1,1,1,1,31
603,603,0,1,1,2,2,31
604,604,0,1,1,3,3,31
605,605,0,1,1,4,4,31
606,606,0,1,1,5,5,31
607,607,0,1,1,6,6,31
608,608,0,1,1,7,7,31
609,609,0,1,1,8,8,31
610,610,0,1,1,9,9,31
611,611,0,1,1,10,10,31
612,612,0,1,1,11,11,31
613,613,0,1,1,12,12,31
614,614,0,1,1,13,13,31
615,615,0,1,1,14,14,31
616,616,0,1,1,15,15,31
617,617,0,1,1,16,16,31
618,618,0,1,1,17,17,31
619,619,0,1,1,18,18,31
620,620,0,1,1,19,19,31
621,621,0,1,1,20,20,31
622,622,0,1,1,21,21,31
623,623,0,1,1,22,22,31
624,624,0,1,1,23,23,31
625,625,0,1,1,24,24,31
626,626,0,1,1,25,25,31
627,627,0,1,1,26,26,31
628,628,0,1,1,27,27,31
629,629,0,1,1,28,28,31
630,630,0,1,1,29,29,31
631,631,0,1,1,30,30,31
632,632,0,1,1,31,31,31
633,633,0,1,0,0,32,31
634,634,0,1,0,1,0,0
635,635,0,1,0,2,0,1
636,636,0,1,0,3,0,2
637,637,0,1,0,4,0,3
638,638,0,1,0,5,0,4
639,639,0,1,0,6,0,5
640,640,0,1,0,7,0,6
641,641,0,1,0,8,0,7
642,642,0,1,0,9,0,8
643,643,0,1,0,10,0,9
644,644,0,1,0,11,0,10
645,645,0,1,0,12,0,11
646,646,0,1,0,13,0,12
647,647,0,1,0,14,0,13
648,648,0,1,0,15,0,14
649,649,0,1,0,16,0,15
650,650,0,1,0,17,0,16
651,651,0,1,0,18,0,17
652,652,0,1,0,19,0,18
653,653,0,1,0,20,0,19
654,654,0,1,0,21,0,20
655,655,0,1,0,22,0,21
656,656,0,1,0,23,0,22
657,657,0,1,0,24,0,23
658,658,0,1,0,25,0,24
659,659,0,1,0,26,0,25
660,660,0,1,0,27,0,26
661,661,0,1,0,28,0,27
662,662,0,1,0,29,0,28
663,663,0,1,0,30,0,29
664,664,0,1,0,31,0,30
665,665,0,1,1,0,0,31
666,666,0,1,1,1,1,31
667,667,0,1,1,2,2,31
668,668,0,1,1,3,3,31
669,669,0,1,1,4,4,31
670,670,0,1,1,5,5,31
671,671,0,1,1,6,6,31
672,672,0,1,1,7,7,31
673,673,0,1,1,8,8,31
674,674,0,1,1,9,9,31
675,675,0,1,1,10,10,31
676,676,0,1,1,11,11,31
677,677,0,1,1,12,12,31
678,678,0,1,1,13,13,31
679,679,0,1,1,14,14,31
680,680,0,1,1,15,15,31
681,681,0,1,1,16,16,31
682,682,0,1,1,17,17,31
683,683,0,1,1,18,18,31
684,684,0,1,1,19,19,31
685,685,0,1,1,20,20,31
686,686,0,1,1,21,21,31
687,687,0,1,1,22,22,31
688,688,0,1,1,23,23,31
689,689,0,1,1,24,24,31
690,690,0,1,1,25,25,31
691,691,0,1,1,26,26,31
692,692,0,1,1,27,27,31
693,693,0,1,1,28,28,31
694,694,0,1,1,29,29,31
695,695,0,1,1,30,30,31
696,696,0,1,1,31,31,31
697,697,0,1,0,0,32,31
698,698,0,1,0,1,0,0
699,699,0,1,0,2,0,1
700,700,0,1,0,3,0,2
701,701,0,1,0,4,0,3
702,702,0,1,0,5,0,4
703,703,0,1,0,6,0,5
704,704,0,1,0,7,0,6
705,705,0,1,0,8,0,7
706,706,0,1,0,9,0,8
707,707,0,1,0,10,0,9
708,708,0,1,0,11,0,10
709,709,0,1,0,12,0,11
710,710,0,1,0,13,0,12
711,711,0,1,0,14,0,13
712,712,0,1,0,15,0,14
713,713,0,1,0,16,0,15
714,714,0,1,0,17,0,16
715,715,0,1,0,18,0,17
716,716,0,1,0,19,0,18
717,717,0,1,0,20,0,19
718,718,0,1,0,21,0,20
719,719,0,1,0,22,0,21
720,720,0,1,0,23,0,22
721,721,0,1,0,24,0,23
722,722,0,1,0,25,0,24
723,723,0,1,0,26,0,25
724,724,0,1,0,27,0,26
725,725,0,1,0,28,0,27
726,726,0,1,0,29,0,28
727,727,0,1,0,30,0,29
728,728,0,1,0,31,0,30
729,729,0,1,1,0,0,31
730,730,0,1,1,1,1,31
731,731,0,1,1,2,2,31
732,732,0,1,1,3,3,31
733,733,0,1,1,4,4,31
734,734,0,1,1,5,5,31
735,735,0,1,1,6,6,31
736,736,0,1,1,7,7,31
737,737,0,1,1,8,8,31
738,738,0,1,1,9,9,31
739,739,0,1,1,10,10,31
740,740,0,1,1,11,11,31
741,741,0,1,1,12,12,31
742,742,0,1,1,13,13,31
743,743,0,1,1,14,14,31
744,744,0,1,1,15,15,31
745,745,0,1,1,16,16,31
746,746,0,1,1,17,17,31
747,747,0,1,1,18,18,31
748,748,0,1,1,19,19,31
749,749,0,1,1,20,20,31
750,750,0,1,1,21,21,31
751,751,0,1,1,22,22,31
752,752,0,1,1,23,23,31
753,753,0,1,1,24,24,31
754,754,0,1,1,25,25,31
755,755,0,1,1,26,26,31
756,756,0,1,1,27,27,31
757,757,0,1,1,28,28,31
758,758,0,1,1,29,29,31
759,759,0,1,1,30,30,31
760,760,0,1,1,31,31,31
761,761,0,1,0,0,32,31
762,762,0,1,0,1,0,0
763,763,0,1,0,2,0,1
764,764,0,1,0,3,0,2
765,765,0,1,0,4,0,3
766,766,0,1,0,5,0,4
767,767,0,1,0,6,0,5
768,768,0,1,0,7,0,6
769,769,0,1,0,8,0,7
770,770,0,1,0,9,0,8
771,771,0,1,0,10,0,9
772,772,0,1,0,11,0,10
773,773,0,1,0,12,0,11
774,774,0,1,0,13,0,12
775,775,0,1,0,14,0,13
776,776,0,1,0,15,0,14
777,777,0,1,0,16,0,15
778,778,0,1,0,17,0,16
779,779,0,1,0,18,0,17
780,780,0,1,0,19,0,18
781,781,0,1,0,20,0,19
782,782,0,1,0,21,0,20
783,783,0,1,0,22,0,21
784,784,0,1,0,23,0,22
785,785,0,1,0,24,0,23
786,786,0,1,0,25,0,24
787,787,0,1,0,26,0,25
788,788,0,1,0,27,0,26
789,789,0,1,0,28,0,27
790,790,0,1,0,29,0,28
791,791,0,1,0,30,0,29
792,792,0,1,0,31,0,30
793,793,0,1,1,0,0,31
794,794,0,1,1,1,1,31
795,795,0,1,1,2,2,31
796,796,0,1,1,3,3,31
797,797,0,1,1,4,4,31
798,798,0,1,1,5,5,31
799,799,0,1,1,6,6,31
800,800,0,1,1,7,7,31
801,801,0,1,1,8,8,31
802,802,0,1,1,9,9,31
803,803,0,1,1,10,10,31
804,804,0,1,1,11,11,31
805,805,0,1,1,12,12,31
806,806,0,1,1,13,13,31
807,807,0,1,1,14,14,31
808,808,0,1,1,15,15,31
809,809,0,1,1,16,16,31
810,810,0,1,1,17,17,31
811,811,0,1,1,18,18,31
812,812,0,1,1,19,19,31
813,813,0,1,1,20,20,31
814,814,0,1,1,21,21,31
815,815,0,1,1,22,22,31
816,816,0,1,1,23,23,31
817,817,0,1,1,24,24,31
818,818,0,1,1,25,25,31
819,819,0,1,1,26,26,31
820,820,0,1,1,27,27,31
821,821,0,1,1,28,28,31
822,822,0,1,1,29,29,31
823,823,0,1,1,30,30,31
824,824,0,1,1,31,31,31
825,825,0,1,0,0,32,31
826,826,0,1,0,1,0,0
827,827,0,1,0,2,0,1
828,828,0,1,0,3,0,2
829,829,0,1,0,4,0,3
830,830,0,1,0,5,0,4
831,831,0,1,0,6,0,5
832,832,0,1,0,7,0,6
833,833,0,1,0,8,0,7
834,834,0,1,0,9,0,8
835,835,0,1,0,10,0,9
836,836,0,1,0,11,0,10
837,837,0,1,0,12,0,11
838,838,0,1,0,13,0,12
839,839,0,1,0,14,0,13
840,840,0,1,0,15,0,14
841,841,0,1,0,16,0,15
842,842,0,1,0,17,0,16
843,843,0,1,0,18,0,17
844,844,0,1,0,19,0,18
845,845,0,1,0,20,0,19
846,846,0,1,0,21,0,20
847,847,0,1,0,22,0,21
848,848,0,1,0,23,0,22
849,849,0,1,0,24,0,23
850,850,0,1,0,25,0,24
851,851,0,1,0,26,0,25
852,852,0,1,0,27,0,26
853,853,0,1,0,28,0,27
854,854,0,1,0,29,0,28
855,855,0,1,0,30,0,29
856,856,0,1,0,31,0,30
857,857,0,1,1,0,0,31
858,858,0,1,1,1,1,31
859,859,0,1,1,2,2,31
860,860,0,1,1,3,3,31
861,861,0,1,1,4,4,31
862,862,0,1,1,5,5,31
863,863,0,1,1,6,6,31
864,864,0,1,1,7,7,31
865,865,0,1,1,8,8,31
866,866,0,1,1,9,9,31
867,867,0,1,1,10,10,31
868,868,0,1,1,11,11,31
869,869,0,1,1,12,12,31
870,870,0,1,1,13,13,31
871,871,0,1,1,14,14,31
872,872,0,1,1,15,15,31
873,873,0,1,1,16,16,31
874,874,0,1,1,17,17,31
875,875,0,1,1,18,18,31
876,876,0,1,1,19,19,31
877,877,0,1,1,20,20,31
878,878,0,1,1,21,21,31
879,879,0,1,1,22,22,31
880,880,0,1,1,23,23,31
881,881,0,1,1,24,24,31
882,882,0,1,1,25,25,31
883,883,0,1,1,26,26,31
884,884,0,1,1,27,27,31
885,885,0,1,1,28,28,31
886,886,0,1,1,29,29,31
887,887,0,1,1,30,30,31
888,888,0,1,1,31,31,31
889,889,0,1,0,0,32,31
890,890,0,1,0,1,0,0
891,891,0,1,0,2,0,1
892,892,0,1,0,3,0,2
893,893,0,1,0,4,0,3
894,894,0,1,0,5,0,4
895,895,0,1,0,6,0,5
896,896,0,1,0,7,0,6
897,897,0,1,0,8,0,7
898,898,0,1,0,9,0,8
899,899,0,1,0,10,0,9
900,900,0,1,0,11,0,10
901,901,0,1,0,12,0,11
902,902,0,1,0,13,0,12
903,903,0,1,0,14,0,13
904,904,0,1,0,15,0,14
905,905,0,1,0,16,0,15
906,906,0,1,0,17,0,16
907,907,0,1,0,18,0,17
908,908,0,1,0,19,0,18
909,909,0,1,0,20,0,19
910,910,0,1,0,21,0,20
911,911,0,1,0,22,0,21
912,912,0,1,0,23,0,22
